                                  circuit rlc
                                  AC Analysis  Mon Dec 11 17:50:13  2017
--------------------------------------------------------------------------------
Index   frequency       i(vil)                          
--------------------------------------------------------------------------------
0	1.000000e+02	9.993936e-05,	-1.25512e-07	
1	1.023293e+02	9.994121e-05,	-1.28440e-07	
2	1.047129e+02	9.994315e-05,	-1.31437e-07	
3	1.071519e+02	9.994518e-05,	-1.34504e-07	
4	1.096478e+02	9.994730e-05,	-1.37643e-07	
5	1.122018e+02	9.994953e-05,	-1.40855e-07	
6	1.148154e+02	9.995186e-05,	-1.44143e-07	
7	1.174898e+02	9.995430e-05,	-1.47507e-07	
8	1.202264e+02	9.995685e-05,	-1.50951e-07	
9	1.230269e+02	9.995953e-05,	-1.54475e-07	
10	1.258925e+02	9.996233e-05,	-1.58082e-07	
11	1.288250e+02	9.996527e-05,	-1.61774e-07	
12	1.318257e+02	9.996834e-05,	-1.65553e-07	
13	1.348963e+02	9.997156e-05,	-1.69420e-07	
14	1.380384e+02	9.997493e-05,	-1.73378e-07	
15	1.412538e+02	9.997846e-05,	-1.77429e-07	
16	1.445440e+02	9.998216e-05,	-1.81575e-07	
17	1.479108e+02	9.998603e-05,	-1.85819e-07	
18	1.513561e+02	9.999008e-05,	-1.90163e-07	
19	1.548817e+02	9.999432e-05,	-1.94609e-07	
20	1.584893e+02	9.999877e-05,	-1.99159e-07	
21	1.621810e+02	1.000034e-04,	-2.03817e-07	
22	1.659587e+02	1.000083e-04,	-2.08585e-07	
23	1.698244e+02	1.000134e-04,	-2.13466e-07	
24	1.737801e+02	1.000187e-04,	-2.18461e-07	
25	1.778279e+02	1.000243e-04,	-2.23575e-07	
26	1.819701e+02	1.000302e-04,	-2.28810e-07	
27	1.862087e+02	1.000364e-04,	-2.34168e-07	
28	1.905461e+02	1.000428e-04,	-2.39654e-07	
29	1.949845e+02	1.000495e-04,	-2.45269e-07	
30	1.995262e+02	1.000566e-04,	-2.51017e-07	
31	2.041738e+02	1.000640e-04,	-2.56902e-07	
32	2.089296e+02	1.000717e-04,	-2.62927e-07	
33	2.137962e+02	1.000798e-04,	-2.69095e-07	
34	2.187762e+02	1.000883e-04,	-2.75410e-07	
35	2.238721e+02	1.000972e-04,	-2.81875e-07	
36	2.290868e+02	1.001065e-04,	-2.88495e-07	
37	2.344229e+02	1.001162e-04,	-2.95272e-07	
38	2.398833e+02	1.001264e-04,	-3.02212e-07	
39	2.454709e+02	1.001371e-04,	-3.09317e-07	
40	2.511886e+02	1.001483e-04,	-3.16593e-07	
41	2.570396e+02	1.001600e-04,	-3.24044e-07	
42	2.630268e+02	1.001723e-04,	-3.31673e-07	
43	2.691535e+02	1.001852e-04,	-3.39486e-07	
44	2.754229e+02	1.001987e-04,	-3.47487e-07	
45	2.818383e+02	1.002128e-04,	-3.55682e-07	
46	2.884032e+02	1.002276e-04,	-3.64074e-07	
47	2.951209e+02	1.002431e-04,	-3.72670e-07	
48	3.019952e+02	1.002593e-04,	-3.81474e-07	
49	3.090295e+02	1.002763e-04,	-3.90493e-07	
50	3.162278e+02	1.002941e-04,	-3.99730e-07	
51	3.235937e+02	1.003127e-04,	-4.09194e-07	
52	3.311311e+02	1.003322e-04,	-4.18888e-07	
53	3.388442e+02	1.003527e-04,	-4.28821e-07	
54	3.467369e+02	1.003741e-04,	-4.38997e-07	

Index   frequency       i(vil)                          
--------------------------------------------------------------------------------
55	3.548134e+02	1.003966e-04,	-4.49424e-07	
56	3.630781e+02	1.004201e-04,	-4.60108e-07	
57	3.715352e+02	1.004447e-04,	-4.71057e-07	
58	3.801894e+02	1.004705e-04,	-4.82278e-07	
59	3.890451e+02	1.004976e-04,	-4.93778e-07	
60	3.981072e+02	1.005259e-04,	-5.05565e-07	
61	4.073803e+02	1.005556e-04,	-5.17647e-07	
62	4.168694e+02	1.005867e-04,	-5.30033e-07	
63	4.265795e+02	1.006193e-04,	-5.42732e-07	
64	4.365158e+02	1.006535e-04,	-5.55751e-07	
65	4.466836e+02	1.006892e-04,	-5.69102e-07	
66	4.570882e+02	1.007267e-04,	-5.82793e-07	
67	4.677351e+02	1.007660e-04,	-5.96834e-07	
68	4.786301e+02	1.008072e-04,	-6.11236e-07	
69	4.897788e+02	1.008504e-04,	-6.26010e-07	
70	5.011872e+02	1.008956e-04,	-6.41168e-07	
71	5.128614e+02	1.009430e-04,	-6.56721e-07	
72	5.248075e+02	1.009927e-04,	-6.72681e-07	
73	5.370318e+02	1.010448e-04,	-6.89061e-07	
74	5.495409e+02	1.010994e-04,	-7.05875e-07	
75	5.623413e+02	1.011566e-04,	-7.23137e-07	
76	5.754399e+02	1.012166e-04,	-7.40861e-07	
77	5.888437e+02	1.012795e-04,	-7.59062e-07	
78	6.025596e+02	1.013454e-04,	-7.77757e-07	
79	6.165950e+02	1.014146e-04,	-7.96962e-07	
80	6.309573e+02	1.014871e-04,	-8.16694e-07	
81	6.456542e+02	1.015631e-04,	-8.36973e-07	
82	6.606934e+02	1.016428e-04,	-8.57816e-07	
83	6.760830e+02	1.017265e-04,	-8.79246e-07	
84	6.918310e+02	1.018142e-04,	-9.01282e-07	
85	7.079458e+02	1.019062e-04,	-9.23946e-07	
86	7.244360e+02	1.020027e-04,	-9.47264e-07	
87	7.413102e+02	1.021040e-04,	-9.71258e-07	
88	7.585776e+02	1.022103e-04,	-9.95956e-07	
89	7.762471e+02	1.023218e-04,	-1.02138e-06	
90	7.943282e+02	1.024388e-04,	-1.04757e-06	
91	8.128305e+02	1.025616e-04,	-1.07455e-06	
92	8.317638e+02	1.026905e-04,	-1.10235e-06	
93	8.511380e+02	1.028259e-04,	-1.13101e-06	
94	8.709636e+02	1.029680e-04,	-1.16056e-06	
95	8.912509e+02	1.031172e-04,	-1.19105e-06	
96	9.120108e+02	1.032739e-04,	-1.22251e-06	
97	9.332543e+02	1.034385e-04,	-1.25498e-06	
98	9.549926e+02	1.036114e-04,	-1.28852e-06	
99	9.772372e+02	1.037931e-04,	-1.32318e-06	
100	1.000000e+03	1.039841e-04,	-1.35899e-06	
101	1.023293e+03	1.041848e-04,	-1.39603e-06	
102	1.047129e+03	1.043957e-04,	-1.43436e-06	
103	1.071519e+03	1.046176e-04,	-1.47403e-06	
104	1.096478e+03	1.048509e-04,	-1.51511e-06	
105	1.122018e+03	1.050963e-04,	-1.55769e-06	
106	1.148154e+03	1.053545e-04,	-1.60183e-06	
107	1.174898e+03	1.056262e-04,	-1.64763e-06	
108	1.202264e+03	1.059122e-04,	-1.69517e-06	
109	1.230269e+03	1.062134e-04,	-1.74456e-06	
110	1.258925e+03	1.065306e-04,	-1.79590e-06	
111	1.288250e+03	1.068647e-04,	-1.84931e-06	
112	1.318257e+03	1.072169e-04,	-1.90491e-06	

Index   frequency       i(vil)                          
--------------------------------------------------------------------------------
113	1.348963e+03	1.075882e-04,	-1.96283e-06	
114	1.380384e+03	1.079796e-04,	-2.02323e-06	
115	1.412538e+03	1.083926e-04,	-2.08627e-06	
116	1.445440e+03	1.088285e-04,	-2.15211e-06	
117	1.479108e+03	1.092886e-04,	-2.22095e-06	
118	1.513561e+03	1.097746e-04,	-2.29300e-06	
119	1.548817e+03	1.102881e-04,	-2.36847e-06	
120	1.584893e+03	1.108310e-04,	-2.44762e-06	
121	1.621810e+03	1.114052e-04,	-2.53072e-06	
122	1.659587e+03	1.120128e-04,	-2.61808e-06	
123	1.698244e+03	1.126562e-04,	-2.71001e-06	
124	1.737801e+03	1.133378e-04,	-2.80689e-06	
125	1.778279e+03	1.140604e-04,	-2.90912e-06	
126	1.819701e+03	1.148270e-04,	-3.01715e-06	
127	1.862087e+03	1.156407e-04,	-3.13148e-06	
128	1.905461e+03	1.165052e-04,	-3.25266e-06	
129	1.949845e+03	1.174243e-04,	-3.38131e-06	
130	1.995262e+03	1.184022e-04,	-3.51814e-06	
131	2.041738e+03	1.194438e-04,	-3.66392e-06	
132	2.089296e+03	1.205542e-04,	-3.81953e-06	
133	2.137962e+03	1.217391e-04,	-3.98599e-06	
134	2.187762e+03	1.230050e-04,	-4.16440e-06	
135	2.238721e+03	1.243588e-04,	-4.35608e-06	
136	2.290868e+03	1.258086e-04,	-4.56248e-06	
137	2.344229e+03	1.273631e-04,	-4.78531e-06	
138	2.398833e+03	1.290323e-04,	-5.02650e-06	
139	2.454709e+03	1.308274e-04,	-5.28830e-06	
140	2.511886e+03	1.327610e-04,	-5.57334e-06	
141	2.570396e+03	1.348475e-04,	-5.88467e-06	
142	2.630268e+03	1.371033e-04,	-6.22587e-06	
143	2.691535e+03	1.395471e-04,	-6.60119e-06	
144	2.754229e+03	1.422004e-04,	-7.01564e-06	
145	2.818383e+03	1.450881e-04,	-7.47523e-06	
146	2.884032e+03	1.482392e-04,	-7.98720e-06	
147	2.951209e+03	1.516875e-04,	-8.56032e-06	
148	3.019952e+03	1.554728e-04,	-9.20531e-06	
149	3.090295e+03	1.596422e-04,	-9.93537e-06	
150	3.162278e+03	1.642520e-04,	-1.07670e-05	
151	3.235937e+03	1.693697e-04,	-1.17208e-05	
152	3.311311e+03	1.750775e-04,	-1.28231e-05	
153	3.388442e+03	1.814759e-04,	-1.41080e-05	
154	3.467369e+03	1.886892e-04,	-1.56196e-05	
155	3.548134e+03	1.968734e-04,	-1.74169e-05	
156	3.630781e+03	2.062260e-04,	-1.95792e-05	
157	3.715352e+03	2.170017e-04,	-2.22159e-05	
158	3.801894e+03	2.295331e-04,	-2.54812e-05	
159	3.890451e+03	2.442635e-04,	-2.95977e-05	
160	3.981072e+03	2.617953e-04,	-3.48966e-05	
161	4.073803e+03	2.829658e-04,	-4.18882e-05	
162	4.168694e+03	3.089690e-04,	-5.13916e-05	
163	4.265795e+03	3.415548e-04,	-6.47860e-05	
164	4.365158e+03	3.833614e-04,	-8.45372e-05	
165	4.466836e+03	4.384551e-04,	-1.15383e-04	
166	4.570882e+03	5.130683e-04,	-1.67275e-04	
167	4.677351e+03	6.155081e-04,	-2.63483e-04	
168	4.786301e+03	7.459889e-04,	-4.64470e-04	
169	4.897788e+03	8.054377e-04,	-9.18373e-04	
170	5.011872e+03	2.305633e-04,	-1.55356e-03	

Index   frequency       i(vil)                          
--------------------------------------------------------------------------------
171	5.128614e+03	-6.73488e-04,	-1.16093e-03	
172	5.248075e+03	-7.31485e-04,	-5.58823e-04	
173	5.370318e+03	-5.85908e-04,	-2.87419e-04	
174	5.495409e+03	-4.62604e-04,	-1.67057e-04	
175	5.623413e+03	-3.73692e-04,	-1.06732e-04	
176	5.754399e+03	-3.09284e-04,	-7.30275e-05	
177	5.888437e+03	-2.61269e-04,	-5.25549e-05	
178	6.025596e+03	-2.24399e-04,	-3.92980e-05	
179	6.165950e+03	-1.95337e-04,	-3.02752e-05	
180	6.309573e+03	-1.71916e-04,	-2.38861e-05	
181	6.456542e+03	-1.52685e-04,	-1.92143e-05	
182	6.606934e+03	-1.36642e-04,	-1.57065e-05	
183	6.760830e+03	-1.23078e-04,	-1.30136e-05	
184	6.918310e+03	-1.11475e-04,	-1.09069e-05	
185	7.079458e+03	-1.01450e-04,	-9.23206e-06	
186	7.244360e+03	-9.27131e-05,	-7.88170e-06	
187	7.413102e+03	-8.50393e-05,	-6.77955e-06	
188	7.585776e+03	-7.82536e-05,	-5.87023e-06	
189	7.762471e+03	-7.22170e-05,	-5.11281e-06	
190	7.943282e+03	-6.68178e-05,	-4.47651e-06	
191	8.128305e+03	-6.19654e-05,	-3.93784e-06	
192	8.317638e+03	-5.75853e-05,	-3.47869e-06	
193	8.511380e+03	-5.36161e-05,	-3.08486e-06	
194	8.709636e+03	-5.00062e-05,	-2.74514e-06	
195	8.912509e+03	-4.67124e-05,	-2.45058e-06	
196	9.120108e+03	-4.36982e-05,	-2.19396e-06	
197	9.332543e+03	-4.09321e-05,	-1.96944e-06	
198	9.549926e+03	-3.83875e-05,	-1.77221e-06	
199	9.772372e+03	-3.60412e-05,	-1.59831e-06	
200	1.000000e+04	-3.38730e-05,	-1.44447e-06	
201	1.023293e+04	-3.18656e-05,	-1.30794e-06	
202	1.047129e+04	-3.00037e-05,	-1.18642e-06	
203	1.071519e+04	-2.82736e-05,	-1.07796e-06	
204	1.096478e+04	-2.66637e-05,	-9.80929e-07	
205	1.122018e+04	-2.51633e-05,	-8.93905e-07	
206	1.148154e+04	-2.37630e-05,	-8.15688e-07	
207	1.174898e+04	-2.24546e-05,	-7.45241e-07	
208	1.202264e+04	-2.12304e-05,	-6.81672e-07	
209	1.230269e+04	-2.00839e-05,	-6.24204e-07	
210	1.258925e+04	-1.90090e-05,	-5.72165e-07	
211	1.288250e+04	-1.80002e-05,	-5.24966e-07	
212	1.318257e+04	-1.70525e-05,	-4.82095e-07	
213	1.348963e+04	-1.61615e-05,	-4.43099e-07	
214	1.380384e+04	-1.53232e-05,	-4.07580e-07	
215	1.412538e+04	-1.45337e-05,	-3.75190e-07	
216	1.445440e+04	-1.37898e-05,	-3.45617e-07	
217	1.479108e+04	-1.30882e-05,	-3.18587e-07	
218	1.513561e+04	-1.24262e-05,	-2.93855e-07	
219	1.548817e+04	-1.18012e-05,	-2.71203e-07	
220	1.584893e+04	-1.12108e-05,	-2.50437e-07	
221	1.621810e+04	-1.06527e-05,	-2.31384e-07	
222	1.659587e+04	-1.01249e-05,	-2.13886e-07	
223	1.698244e+04	-9.62549e-06,	-1.97806e-07	
224	1.737801e+04	-9.15277e-06,	-1.83016e-07	
225	1.778279e+04	-8.70510e-06,	-1.69403e-07	
226	1.819701e+04	-8.28098e-06,	-1.56866e-07	
227	1.862087e+04	-7.87902e-06,	-1.45312e-07	
228	1.905461e+04	-7.49791e-06,	-1.34657e-07	

Index   frequency       i(vil)                          
--------------------------------------------------------------------------------
229	1.949845e+04	-7.13645e-06,	-1.24827e-07	
230	1.995262e+04	-6.79352e-06,	-1.15751e-07	
231	2.041738e+04	-6.46805e-06,	-1.07368e-07	
232	2.089296e+04	-6.15908e-06,	-9.96219e-08	
233	2.137962e+04	-5.86567e-06,	-9.24598e-08	
234	2.187762e+04	-5.58697e-06,	-8.58352e-08	
235	2.238721e+04	-5.32218e-06,	-7.97052e-08	
236	2.290868e+04	-5.07054e-06,	-7.40305e-08	
237	2.344229e+04	-4.83134e-06,	-6.87753e-08	
238	2.398833e+04	-4.60392e-06,	-6.39070e-08	
239	2.454709e+04	-4.38764e-06,	-5.93953e-08	
240	2.511886e+04	-4.18194e-06,	-5.52129e-08	
241	2.570396e+04	-3.98624e-06,	-5.13345e-08	
242	2.630268e+04	-3.80004e-06,	-4.77368e-08	
243	2.691535e+04	-3.62283e-06,	-4.43988e-08	
244	2.754229e+04	-3.45416e-06,	-4.13007e-08	
245	2.818383e+04	-3.29360e-06,	-3.84246e-08	
246	2.884032e+04	-3.14072e-06,	-3.57540e-08	
247	2.951209e+04	-2.99514e-06,	-3.32735e-08	
248	3.019952e+04	-2.85650e-06,	-3.09692e-08	
249	3.090295e+04	-2.72445e-06,	-2.88280e-08	
250	3.162278e+04	-2.59865e-06,	-2.68381e-08	
251	3.235937e+04	-2.47880e-06,	-2.49883e-08	
252	3.311311e+04	-2.36461e-06,	-2.32686e-08	
253	3.388442e+04	-2.25579e-06,	-2.16694e-08	
254	3.467369e+04	-2.15208e-06,	-2.01821e-08	
255	3.548134e+04	-2.05324e-06,	-1.87986e-08	
256	3.630781e+04	-1.95903e-06,	-1.75116e-08	
257	3.715352e+04	-1.86921e-06,	-1.63140e-08	
258	3.801894e+04	-1.78359e-06,	-1.51995e-08	
259	3.890451e+04	-1.70195e-06,	-1.41623e-08	
260	3.981072e+04	-1.62411e-06,	-1.31968e-08	
261	4.073803e+04	-1.54988e-06,	-1.22980e-08	
262	4.168694e+04	-1.47910e-06,	-1.14612e-08	
263	4.265795e+04	-1.41159e-06,	-1.06820e-08	
264	4.365158e+04	-1.34721e-06,	-9.95640e-09	
265	4.466836e+04	-1.28580e-06,	-9.28061e-09	
266	4.570882e+04	-1.22722e-06,	-8.65116e-09	
267	4.677351e+04	-1.17134e-06,	-8.06483e-09	
268	4.786301e+04	-1.11803e-06,	-7.51862e-09	
269	4.897788e+04	-1.06718e-06,	-7.00973e-09	
270	5.011872e+04	-1.01866e-06,	-6.53559e-09	
271	5.128614e+04	-9.72367e-07,	-6.09378e-09	
272	5.248075e+04	-9.28198e-07,	-5.68208e-09	
273	5.370318e+04	-8.86053e-07,	-5.29840e-09	
274	5.495409e+04	-8.45838e-07,	-4.94082e-09	
275	5.623413e+04	-8.07463e-07,	-4.60754e-09	
276	5.754399e+04	-7.70841e-07,	-4.29688e-09	
277	5.888437e+04	-7.35893e-07,	-4.00731e-09	
278	6.025596e+04	-7.02541e-07,	-3.73736e-09	
279	6.165950e+04	-6.70710e-07,	-3.48571e-09	
280	6.309573e+04	-6.40330e-07,	-3.25109e-09	
281	6.456542e+04	-6.11335e-07,	-3.03235e-09	
282	6.606934e+04	-5.83660e-07,	-2.82840e-09	
283	6.760830e+04	-5.57245e-07,	-2.63823e-09	
284	6.918310e+04	-5.32032e-07,	-2.46090e-09	
285	7.079458e+04	-5.07965e-07,	-2.29555e-09	
286	7.244360e+04	-4.84993e-07,	-2.14135e-09	

Index   frequency       i(vil)                          
--------------------------------------------------------------------------------
287	7.413102e+04	-4.63064e-07,	-1.99756e-09	
288	7.585776e+04	-4.42130e-07,	-1.86345e-09	
289	7.762471e+04	-4.22148e-07,	-1.73838e-09	
290	7.943282e+04	-4.03071e-07,	-1.62174e-09	
291	8.128305e+04	-3.84861e-07,	-1.51295e-09	
292	8.317638e+04	-3.67476e-07,	-1.41148e-09	
293	8.511380e+04	-3.50879e-07,	-1.31683e-09	
294	8.709636e+04	-3.35034e-07,	-1.22855e-09	
295	8.912509e+04	-3.19907e-07,	-1.14620e-09	
296	9.120108e+04	-3.05465e-07,	-1.06939e-09	
297	9.332543e+04	-2.91676e-07,	-9.97741e-10	
298	9.549926e+04	-2.78512e-07,	-9.30902e-10	
299	9.772372e+04	-2.65944e-07,	-8.68550e-10	
300	1.000000e+05	-2.53944e-07,	-8.10385e-10	
